
T25C0 000:080 SEGGER J-Link V6.12 Log File (0001ms, 0042ms total)
T25C0 000:080 DLL Compiled: Nov 25 2016 18:08:26 (0001ms, 0042ms total)
T25C0 000:080 Logging started @ 2017-04-19 13:38 (0001ms, 0042ms total)
T25C0 000:081 JLINK_SetWarnOutHandler(...) (0000ms, 0042ms total)
T25C0 000:081 JLINK_OpenEx(...)
Firmware: J-Link LPCXpresso V2 compiled Jul 21 2016 11:30:13
Hardware: V1.00
S/N: 722028102WEBSRV Webserver running on local port 19080 (0025ms, 0067ms total)
T25C0 000:081   returns O.K. (0025ms, 0067ms total)
T25C0 000:106 JLINK_SetErrorOutHandler(...) (0000ms, 0067ms total)
T25C0 000:106 JLINK_ExecCommand("ProjectFile = "C:\QBlue\QN9080\mcu-sdk-2.0-qn9080\boards\qn908xcdk\driver_examples\soft_i2s\interrupt\mdk\JLinkSettings.ini"", ...). C:\Program Files (x86)\SEGGER\JLink_V612\JLinkDevices.xml evaluated successfully.Device "CORTEX-M4" selected.  returns 0x00 (0502ms, 0569ms total)
T25C0 000:620 JLINK_ExecCommand("Device = QN9080B", ...). Device "CORTEX-M4" selected.  returns 0x00 (0013ms, 0582ms total)
T25C0 000:633 JLINK_ExecCommand("DisableConnectionTimeout", ...).   returns 0x01 (0000ms, 0582ms total)
T25C0 000:633 JLINK_GetHardwareVersion()  returns 0x2710 (0000ms, 0582ms total)
T25C0 000:633 JLINK_GetDLLVersion()  returns 61200 (0000ms, 0582ms total)
T25C0 000:634 JLINK_GetFirmwareString(...) (0000ms, 0583ms total)
T25C0 000:663 JLINK_GetDLLVersion()  returns 61200 (0000ms, 0583ms total)
T25C0 000:663 JLINK_GetCompileDateTime() (0000ms, 0583ms total)
T25C0 000:675 JLINK_GetFirmwareString(...) (0000ms, 0583ms total)
T25C0 000:688 JLINK_GetHardwareVersion()  returns 0x2710 (0001ms, 0584ms total)
T25C0 000:722 JLINK_TIF_Select(JLINKARM_TIF_SWD)  returns 0x00 (0002ms, 0586ms total)
T25C0 000:724 JLINK_SetSpeed(5000) (0001ms, 0587ms total)
T25C0 000:725 JLINK_GetId() >0x108 TIF>Found SWD-DP with ID 0x2BA01477 >0x0D TIF> >0x28 TIF> >0x0D TIF> >0x28 TIF> >0x0D TIF> >0x28 TIF> >0x0D TIF> >0x28 TIF> >0x0D TIF> >0x21 TIF> >0x0D TIF> >0x28 TIF> >0x0D TIF> >0x28 TIF> >0x0D TIF> >0x21 TIF> >0x0D TIF> >0x21 TIF> >0x0D TIF> >0x21 TIF>AP-IDR: 0x24770011, Type: AHB-AP >0x0D TIF> >0x28 TIF> >0x0D TIF> >0x28 TIF> >0x0D TIF> >0x28 TIF> >0x0D TIF> >0x21 TIF> >0x0D TIF> >0x21 TIF> >0x0D TIF> >0x28 TIF> >0x0D TIF> >0x21 TIF> >0x0D TIF> >0x21 TIF>
Found Cortex-M4 r0p1, Little endian. -- CPU_ReadMem(4 bytes @ 0xE000EDF0) -- CPU_ReadMem(4 bytes @ 0xE0002000)FPUnit: 6 code (BP) slots and 2 literal slots -- CPU_ReadMem(4 bytes @ 0xE000EDFC) -- CPU_ReadMem(4 bytes @ 0xE0001000) -- CPU_WriteMem(4 bytes @ 0xE0001000) -- CPU_ReadMem(4 bytes @ 0xE000ED88) -- CPU_WriteMem(4 bytes @ 0xE000ED88) -- CPU_ReadMem(4 bytes @ 0xE000ED88) -- CPU_WriteMem(4 bytes @ 0xE000ED88)CoreSight components:ROMTbl 0 @ E00FF000 -- CPU_ReadMem(16 bytes @ 0xE00FF000)
 -- CPU_ReadMem(16 bytes @ 0xE000EFF0) -- CPU_ReadMem(16 bytes @ 0xE000EFE0)ROMTbl 0 [0]: FFF0F000, CID: B105E00D, PID: 000BB00C SCS -- CPU_ReadMem(16 bytes @ 0xE0001FF0) -- CPU_ReadMem(16 bytes @ 0xE0001FE0)ROMTbl 0 [1]: FFF02000, CID: B105E00D, PID: 003BB002 DWT -- CPU_ReadMem(16 bytes @ 0xE0002FF0) -- CPU_ReadMem(16 bytes @ 0xE0002FE0)ROMTbl 0 [2]: FFF03000, CID: B105E00D, PID: 002BB003 FPB -- CPU_ReadMem(16 bytes @ 0xE0000FF0) -- CPU_ReadMem(16 bytes @ 0xE0000FE0)
ROMTbl 0 [3]: FFF01000, CID: B105E00D, PID: 003BB001 ITM -- CPU_ReadMem(16 bytes @ 0xE00FF010) -- CPU_ReadMem(16 bytes @ 0xE0040FF0) -- CPU_ReadMem(16 bytes @ 0xE0040FE0)ROMTbl 0 [4]: FFF41000, CID: B105900D, PID: 000BB9A1 TPIU -- CPU_ReadMem(16 bytes @ 0xE0041FF0) -- CPU_ReadMem(16 bytes @ 0xE0041FE0)ROMTbl 0 [5]: FFF42000, CID: B105900D, PID: 000BB925 ETM >0x0D TIF> >0x21 TIF>  returns 0x2BA01477 (0190ms, 0777ms total)
T25C0 000:915 JLINK_GetDLLVersion()  returns 61200 (0000ms, 0777ms total)
T25C0 000:915 JLINK_CORE_GetFound()  returns 0xE0000FF (0000ms, 0777ms total)
T25C0 000:915 JLINK_GetDebugInfo(0x100) -- Value=0xE00FF000  returns 0x00 (0000ms, 0777ms total)
T25C0 000:932 JLINK_GetDebugInfo(0x100) -- Value=0xE00FF000  returns 0x00 (0000ms, 0777ms total)
T25C0 000:932 JLINK_GetDebugInfo(0x101) -- Value=0xE0041000  returns 0x00 (0000ms, 0777ms total)
T25C0 000:932 JLINK_GetDebugInfo(0x102) -- Value=0x00000000  returns 0x00 (0000ms, 0777ms total)
T25C0 000:932 JLINK_GetDebugInfo(0x103) -- Value=0xE0040000  returns 0x00 (0000ms, 0777ms total)
T25C0 000:932 JLINK_GetDebugInfo(0x104) -- Value=0xE0000000  returns 0x00 (0000ms, 0777ms total)
T25C0 000:932 JLINK_GetDebugInfo(0x105) -- Value=0xE0001000  returns 0x00 (0001ms, 0778ms total)
T25C0 000:933 JLINK_GetDebugInfo(0x106) -- Value=0xE0002000  returns 0x00 (0000ms, 0778ms total)
T25C0 000:933 JLINK_GetDebugInfo(0x107) -- Value=0xE000E000  returns 0x00 (0000ms, 0778ms total)
T25C0 000:933 JLINK_GetDebugInfo(0x10C) -- Value=0xE000EDF0  returns 0x00 (0000ms, 0778ms total)
T25C0 000:933 JLINK_ReadMemU32(0xE000EF40, 0x0001 Items, ...) -- CPU is running -- CPU_ReadMem(4 bytes @ 0xE000EF40) - Data: 21 00 11 10  returns 0x01 (0001ms, 0779ms total)
T25C0 000:934 JLINK_ReadMemU32(0xE000EF44, 0x0001 Items, ...) -- CPU is running -- CPU_ReadMem(4 bytes @ 0xE000EF44) - Data: 11 00 00 11  returns 0x01 (0000ms, 0779ms total)
T25C0 000:934 JLINK_ReadMemU32(0xE000ED00, 0x0001 Items, ...) -- CPU is running -- CPU_ReadMem(4 bytes @ 0xE000ED00) - Data: 41 C2 0F 41  returns 0x01 (0001ms, 0780ms total)
T25C0 000:935 JLINK_SetResetType(JLINKARM_CM3_RESET_TYPE_NORMAL)  returns JLINKARM_CM3_RESET_TYPE_NORMAL (0000ms, 0780ms total)
T25C0 000:935 JLINK_Reset() -- CPU is running -- CPU_WriteMem(4 bytes @ 0xE000EDF0) -- CPU is running -- CPU_WriteMem(4 bytes @ 0xE000EDFC) >0x35 TIF> -- CPU is running -- CPU_WriteMem(4 bytes @ 0xE000ED0C) -- CPU is running -- CPU_ReadMem(4 bytes @ 0xE000EDF0) -- CPU is running -- CPU_ReadMem(4 bytes @ 0xE000EDF0) -- CPU is running -- CPU_WriteMem(4 bytes @ 0xE000EDF0) -- CPU is running -- CPU_WriteMem(4 bytes @ 0xE000EDFC) -- CPU is running -- CPU_ReadMem(4 bytes @ 0xE000EDF0)
 -- CPU_WriteMem(4 bytes @ 0xE0002000) -- CPU_ReadMem(4 bytes @ 0xE000EDFC) -- CPU_ReadMem(4 bytes @ 0xE0001000) (0017ms, 0797ms total)
T25C0 000:952 JLINK_Halt()  returns 0x00 (0001ms, 0798ms total)
T25C0 000:953 JLINK_IsHalted()  returns TRUE (0000ms, 0798ms total)
T25C0 000:953 JLINK_ReadMemU32(0xE000EDF0, 0x0001 Items, ...) -- CPU_ReadMem(4 bytes @ 0xE000EDF0) - Data: 03 00 03 00  returns 0x01 (0000ms, 0798ms total)
T25C0 000:953 JLINK_WriteU32(0xE000EDF0, 0xA05F0003) -- CPU_WriteMem(4 bytes @ 0xE000EDF0)  returns 0x00 (0001ms, 0799ms total)
T25C0 000:954 JLINK_WriteU32(0xE000EDFC, 0x01000000) -- CPU_WriteMem(4 bytes @ 0xE000EDFC)  returns 0x00 (0001ms, 0800ms total)
T25C0 001:012 JLINK_GetHWStatus(...)  returns 0x00 (0000ms, 0800ms total)
T25C0 001:054 JLINK_GetNumBPUnits(Type = 0xFFFFFF00)  returns 0x06 (0000ms, 0800ms total)
T25C0 001:054 JLINK_GetNumBPUnits(Type = 0xF0)  returns 0x2000 (0000ms, 0800ms total)
T25C0 001:054 JLINK_GetNumWPUnits()  returns 0x04 (0000ms, 0800ms total)
T25C0 001:090 JLINK_GetSpeed()  returns 0xFA0 (0000ms, 0800ms total)
T25C0 001:111 JLINK_ReadMemU32(0xE000E004, 0x0001 Items, ...) -- CPU_ReadMem(4 bytes @ 0xE000E004) - Data: 01 00 00 00  returns 0x01 (0001ms, 0801ms total)
T25C0 001:112 JLINK_ReadMemU32(0xE000E004, 0x0001 Items, ...) -- CPU_ReadMem(4 bytes @ 0xE000E004) - Data: 01 00 00 00  returns 0x01 (0000ms, 0801ms total)
T25C0 001:112 JLINK_WriteMem(0xE0001000, 0x001C Bytes, ...) - Data: 01 00 00 00 00 00 00 00 00 00 00 00 00 00 00 00 ... -- CPU_WriteMem(28 bytes @ 0xE0001000)  returns 0x1C (0002ms, 0803ms total)
T25C0 001:114 JLINK_ReadMem (0xE0001000, 0x001C Bytes, ...) -- CPU_ReadMem(28 bytes @ 0xE0001000) - Data: 01 00 00 40 00 00 00 00 00 00 00 00 00 00 00 00 ...  returns 0x00 (0001ms, 0804ms total)
T25C0 001:115 JLINK_Halt()  returns 0x00 (0000ms, 0804ms total)
T25C0 001:115 JLINK_IsHalted()  returns TRUE (0000ms, 0804ms total)
T25C0 001:128 JLINK_WriteMem(0x04000400, 0x07C4 Bytes, ...) - Data: 00 BE 0A E0 0D 78 2D 06 68 40 08 24 40 00 00 D3 ... -- CPU_WriteMem(1988 bytes @ 0x04000400)  returns 0x7C4 (0007ms, 0811ms total)
T25C0 001:136 JLINK_WriteReg(R0, 0x00000000)  returns 0x00 (0000ms, 0811ms total)
T25C0 001:136 JLINK_WriteReg(R1, 0x00B71B00)  returns 0x00 (0000ms, 0811ms total)
T25C0 001:136 JLINK_WriteReg(R2, 0x00000001)  returns 0x00 (0000ms, 0811ms total)
T25C0 001:136 JLINK_WriteReg(R3, 0x00000000)  returns 0x00 (0000ms, 0811ms total)
T25C0 001:136 JLINK_WriteReg(R4, 0x00000000)  returns 0x00 (0000ms, 0811ms total)
T25C0 001:136 JLINK_WriteReg(R5, 0x00000000)  returns 0x00 (0000ms, 0811ms total)
T25C0 001:136 JLINK_WriteReg(R6, 0x00000000)  returns 0x00 (0000ms, 0811ms total)
T25C0 001:136 JLINK_WriteReg(R7, 0x00000000)  returns 0x00 (0000ms, 0811ms total)
T25C0 001:136 JLINK_WriteReg(R8, 0x00000000)  returns 0x00 (0000ms, 0811ms total)
T25C0 001:136 JLINK_WriteReg(R9, 0x04000BA8)  returns 0x00 (0000ms, 0811ms total)
T25C0 001:136 JLINK_WriteReg(R10, 0x00000000)  returns 0x00 (0000ms, 0811ms total)
T25C0 001:136 JLINK_WriteReg(R11, 0x00000000)  returns 0x00 (0000ms, 0811ms total)
T25C0 001:136 JLINK_WriteReg(R12, 0x00000000)  returns 0x00 (0001ms, 0812ms total)
T25C0 001:137 JLINK_WriteReg(R13 (SP), 0x04010000)  returns 0x00 (0000ms, 0812ms total)
T25C0 001:137 JLINK_WriteReg(R14, 0x04000401)  returns 0x00 (0000ms, 0812ms total)
T25C0 001:137 JLINK_WriteReg(R15 (PC), 0x040004F0)  returns 0x00 (0000ms, 0812ms total)
T25C0 001:137 JLINK_WriteReg(XPSR, 0x01000000)  returns 0x00 (0000ms, 0812ms total)
T25C0 001:137 JLINK_WriteReg(MSP, 0x04010000)  returns 0x00 (0000ms, 0812ms total)
T25C0 001:137 JLINK_WriteReg(PSP, 0x04010000)  returns 0x00 (0000ms, 0812ms total)
T25C0 001:137 JLINK_WriteReg(CFBP, 0x00000000)  returns 0x00 (0000ms, 0812ms total)
T25C0 001:137 JLINK_SetBPEx(Addr = 0x04000400, Type = 0xFFFFFFF2)  returns 0x00000001 (0000ms, 0812ms total)
T25C0 001:137 JLINK_Go() -- CPU_WriteMem(4 bytes @ 0xE0002000) -- CPU_ReadMem(4 bytes @ 0xE0001000) -- CPU_WriteMem(4 bytes @ 0xE0002008) -- CPU_WriteMem(4 bytes @ 0xE000200C) -- CPU_WriteMem(4 bytes @ 0xE0002010) -- CPU_WriteMem(4 bytes @ 0xE0002014) -- CPU_WriteMem(4 bytes @ 0xE0002018) -- CPU_WriteMem(4 bytes @ 0xE000201C) -- CPU_WriteMem(4 bytes @ 0xE0001004) (0006ms, 0818ms total)
T25C0 001:143 JLINK_IsHalted()  returns TRUE (0002ms, 0820ms total)
T25C0 001:145 JLINK_ReadReg(R15 (PC))  returns 0x04000400 (0000ms, 0818ms total)
T25C0 001:145 JLINK_ClrBPEx(BPHandle = 0x00000001)  returns 0x00 (0000ms, 0818ms total)
T25C0 001:145 JLINK_ReadReg(R0)  returns 0x00000000 (0000ms, 0818ms total)
T25C0 001:146 JLINK_WriteReg(R0, 0x00000000)  returns 0x00 (0000ms, 0818ms total)
T25C0 001:146 JLINK_WriteReg(R1, 0x00000800)  returns 0x00 (0000ms, 0818ms total)
T25C0 001:146 JLINK_WriteReg(R2, 0x000000FF)  returns 0x00 (0001ms, 0819ms total)
T25C0 001:147 JLINK_WriteReg(R3, 0x00000000)  returns 0x00 (0000ms, 0819ms total)
T25C0 001:147 JLINK_WriteReg(R4, 0x00000000)  returns 0x00 (0000ms, 0819ms total)
T25C0 001:147 JLINK_WriteReg(R5, 0x00000000)  returns 0x00 (0000ms, 0819ms total)
T25C0 001:147 JLINK_WriteReg(R6, 0x00000000)  returns 0x00 (0000ms, 0819ms total)
T25C0 001:147 JLINK_WriteReg(R7, 0x00000000)  returns 0x00 (0000ms, 0819ms total)
T25C0 001:147 JLINK_WriteReg(R8, 0x00000000)  returns 0x00 (0000ms, 0819ms total)
T25C0 001:147 JLINK_WriteReg(R9, 0x04000BA8)  returns 0x00 (0000ms, 0819ms total)
T25C0 001:147 JLINK_WriteReg(R10, 0x00000000)  returns 0x00 (0000ms, 0819ms total)
T25C0 001:147 JLINK_WriteReg(R11, 0x00000000)  returns 0x00 (0000ms, 0819ms total)
T25C0 001:147 JLINK_WriteReg(R12, 0x00000000)  returns 0x00 (0000ms, 0819ms total)
T25C0 001:147 JLINK_WriteReg(R13 (SP), 0x04010000)  returns 0x00 (0000ms, 0819ms total)
T25C0 001:147 JLINK_WriteReg(R14, 0x04000401)  returns 0x00 (0000ms, 0819ms total)
T25C0 001:147 JLINK_WriteReg(R15 (PC), 0x04000420)  returns 0x00 (0000ms, 0819ms total)
T25C0 001:147 JLINK_WriteReg(XPSR, 0x01000000)  returns 0x00 (0000ms, 0819ms total)
T25C0 001:147 JLINK_WriteReg(MSP, 0x04010000)  returns 0x00 (0000ms, 0819ms total)
T25C0 001:147 JLINK_WriteReg(PSP, 0x04010000)  returns 0x00 (0000ms, 0819ms total)
T25C0 001:147 JLINK_WriteReg(CFBP, 0x00000000)  returns 0x00 (0000ms, 0819ms total)
T25C0 001:148 JLINK_SetBPEx(Addr = 0x04000400, Type = 0xFFFFFFF2)  returns 0x00000002 (0000ms, 0820ms total)
T25C0 001:148 JLINK_Go() -- CPU_WriteMem(4 bytes @ 0xE0002000) -- CPU_ReadMem(4 bytes @ 0xE0001000) (0003ms, 0823ms total)
T25C0 001:151 JLINK_IsHalted()  returns TRUE (0002ms, 0825ms total)
T25C0 001:153 JLINK_ReadReg(R15 (PC))  returns 0x04000400 (0000ms, 0823ms total)
T25C0 001:153 JLINK_ClrBPEx(BPHandle = 0x00000002)  returns 0x00 (0000ms, 0823ms total)
T25C0 001:153 JLINK_ReadReg(R0)  returns 0x00000001 (0000ms, 0823ms total)
T25C0 001:154 JLINK_WriteReg(R0, 0x00000000)  returns 0x00 (0000ms, 0823ms total)
T25C0 001:154 JLINK_WriteReg(R1, 0x00000800)  returns 0x00 (0000ms, 0823ms total)
T25C0 001:154 JLINK_WriteReg(R2, 0x000000FF)  returns 0x00 (0000ms, 0823ms total)
T25C0 001:154 JLINK_WriteReg(R3, 0x00000000)  returns 0x00 (0000ms, 0823ms total)
T25C0 001:154 JLINK_WriteReg(R4, 0x00000000)  returns 0x00 (0000ms, 0823ms total)
T25C0 001:154 JLINK_WriteReg(R5, 0x00000000)  returns 0x00 (0000ms, 0823ms total)
T25C0 001:154 JLINK_WriteReg(R6, 0x00000000)  returns 0x00 (0000ms, 0823ms total)
T25C0 001:154 JLINK_WriteReg(R7, 0x00000000)  returns 0x00 (0000ms, 0823ms total)
T25C0 001:154 JLINK_WriteReg(R8, 0x00000000)  returns 0x00 (0000ms, 0823ms total)
T25C0 001:154 JLINK_WriteReg(R9, 0x04000BA8)  returns 0x00 (0000ms, 0823ms total)
T25C0 001:154 JLINK_WriteReg(R10, 0x00000000)  returns 0x00 (0000ms, 0823ms total)
T25C0 001:154 JLINK_WriteReg(R11, 0x00000000)  returns 0x00 (0000ms, 0823ms total)
T25C0 001:154 JLINK_WriteReg(R12, 0x00000000)  returns 0x00 (0000ms, 0823ms total)
T25C0 001:154 JLINK_WriteReg(R13 (SP), 0x04010000)  returns 0x00 (0000ms, 0823ms total)
T25C0 001:154 JLINK_WriteReg(R14, 0x04000401)  returns 0x00 (0000ms, 0823ms total)
T25C0 001:154 JLINK_WriteReg(R15 (PC), 0x040004A0)  returns 0x00 (0000ms, 0823ms total)
T25C0 001:154 JLINK_WriteReg(XPSR, 0x01000000)  returns 0x00 (0000ms, 0823ms total)
T25C0 001:154 JLINK_WriteReg(MSP, 0x04010000)  returns 0x00 (0001ms, 0824ms total)
T25C0 001:155 JLINK_WriteReg(PSP, 0x04010000)  returns 0x00 (0000ms, 0824ms total)
T25C0 001:155 JLINK_WriteReg(CFBP, 0x00000000)  returns 0x00 (0000ms, 0824ms total)
T25C0 001:155 JLINK_SetBPEx(Addr = 0x04000400, Type = 0xFFFFFFF2)  returns 0x00000003 (0000ms, 0824ms total)
T25C0 001:155 JLINK_Go() -- CPU_WriteMem(4 bytes @ 0xE0002000) -- CPU_ReadMem(4 bytes @ 0xE0001000) (0003ms, 0827ms total)
T25C0 001:158 JLINK_IsHalted()  returns FALSE (0000ms, 0827ms total)
T25C0 001:316 JLINK_IsHalted()  returns TRUE (0002ms, 0829ms total)
T25C0 001:318 JLINK_ReadReg(R15 (PC))  returns 0x04000400 (0000ms, 0827ms total)
T25C0 001:318 JLINK_ClrBPEx(BPHandle = 0x00000003)  returns 0x00 (0000ms, 0827ms total)
T25C0 001:318 JLINK_ReadReg(R0)  returns 0x00000000 (0000ms, 0827ms total)
T25C0 001:319 JLINK_WriteReg(R0, 0x00000800)  returns 0x00 (0000ms, 0827ms total)
T25C0 001:319 JLINK_WriteReg(R1, 0x00000800)  returns 0x00 (0000ms, 0827ms total)
T25C0 001:319 JLINK_WriteReg(R2, 0x000000FF)  returns 0x00 (0000ms, 0827ms total)
T25C0 001:320 JLINK_WriteReg(R3, 0x00000000)  returns 0x00 (0000ms, 0828ms total)
T25C0 001:320 JLINK_WriteReg(R4, 0x00000000)  returns 0x00 (0000ms, 0828ms total)
T25C0 001:320 JLINK_WriteReg(R5, 0x00000000)  returns 0x00 (0000ms, 0828ms total)
T25C0 001:320 JLINK_WriteReg(R6, 0x00000000)  returns 0x00 (0000ms, 0828ms total)
T25C0 001:320 JLINK_WriteReg(R7, 0x00000000)  returns 0x00 (0000ms, 0828ms total)
T25C0 001:320 JLINK_WriteReg(R8, 0x00000000)  returns 0x00 (0000ms, 0828ms total)
T25C0 001:320 JLINK_WriteReg(R9, 0x04000BA8)  returns 0x00 (0000ms, 0828ms total)
T25C0 001:320 JLINK_WriteReg(R10, 0x00000000)  returns 0x00 (0000ms, 0828ms total)
T25C0 001:320 JLINK_WriteReg(R11, 0x00000000)  returns 0x00 (0000ms, 0828ms total)
T25C0 001:320 JLINK_WriteReg(R12, 0x00000000)  returns 0x00 (0000ms, 0828ms total)
T25C0 001:320 JLINK_WriteReg(R13 (SP), 0x04010000)  returns 0x00 (0000ms, 0828ms total)
T25C0 001:320 JLINK_WriteReg(R14, 0x04000401)  returns 0x00 (0000ms, 0828ms total)
T25C0 001:320 JLINK_WriteReg(R15 (PC), 0x04000420)  returns 0x00 (0000ms, 0828ms total)
T25C0 001:320 JLINK_WriteReg(XPSR, 0x01000000)  returns 0x00 (0000ms, 0828ms total)
T25C0 001:320 JLINK_WriteReg(MSP, 0x04010000)  returns 0x00 (0000ms, 0828ms total)
T25C0 001:320 JLINK_WriteReg(PSP, 0x04010000)  returns 0x00 (0000ms, 0828ms total)
T25C0 001:320 JLINK_WriteReg(CFBP, 0x00000000)  returns 0x00 (0000ms, 0828ms total)
T25C0 001:320 JLINK_SetBPEx(Addr = 0x04000400, Type = 0xFFFFFFF2)  returns 0x00000004 (0001ms, 0829ms total)
T25C0 001:321 JLINK_Go() -- CPU_WriteMem(4 bytes @ 0xE0002000) -- CPU_ReadMem(4 bytes @ 0xE0001000) (0003ms, 0832ms total)
T25C0 001:324 JLINK_IsHalted()  returns TRUE (0002ms, 0834ms total)
T25C0 001:326 JLINK_ReadReg(R15 (PC))  returns 0x04000400 (0000ms, 0832ms total)
T25C0 001:326 JLINK_ClrBPEx(BPHandle = 0x00000004)  returns 0x00 (0001ms, 0833ms total)
T25C0 001:327 JLINK_ReadReg(R0)  returns 0x00000001 (0000ms, 0833ms total)
T25C0 001:327 JLINK_WriteReg(R0, 0x00000800)  returns 0x00 (0000ms, 0833ms total)
T25C0 001:327 JLINK_WriteReg(R1, 0x00000800)  returns 0x00 (0000ms, 0833ms total)
T25C0 001:327 JLINK_WriteReg(R2, 0x000000FF)  returns 0x00 (0000ms, 0833ms total)
T25C0 001:327 JLINK_WriteReg(R3, 0x00000000)  returns 0x00 (0000ms, 0833ms total)
T25C0 001:327 JLINK_WriteReg(R4, 0x00000000)  returns 0x00 (0000ms, 0833ms total)
T25C0 001:327 JLINK_WriteReg(R5, 0x00000000)  returns 0x00 (0000ms, 0833ms total)
T25C0 001:327 JLINK_WriteReg(R6, 0x00000000)  returns 0x00 (0000ms, 0833ms total)
T25C0 001:327 JLINK_WriteReg(R7, 0x00000000)  returns 0x00 (0000ms, 0833ms total)
T25C0 001:327 JLINK_WriteReg(R8, 0x00000000)  returns 0x00 (0000ms, 0833ms total)
T25C0 001:327 JLINK_WriteReg(R9, 0x04000BA8)  returns 0x00 (0000ms, 0833ms total)
T25C0 001:327 JLINK_WriteReg(R10, 0x00000000)  returns 0x00 (0000ms, 0833ms total)
T25C0 001:327 JLINK_WriteReg(R11, 0x00000000)  returns 0x00 (0000ms, 0833ms total)
T25C0 001:327 JLINK_WriteReg(R12, 0x00000000)  returns 0x00 (0000ms, 0833ms total)
T25C0 001:327 JLINK_WriteReg(R13 (SP), 0x04010000)  returns 0x00 (0000ms, 0833ms total)
T25C0 001:327 JLINK_WriteReg(R14, 0x04000401)  returns 0x00 (0000ms, 0833ms total)
T25C0 001:327 JLINK_WriteReg(R15 (PC), 0x040004A0)  returns 0x00 (0000ms, 0833ms total)
T25C0 001:327 JLINK_WriteReg(XPSR, 0x01000000)  returns 0x00 (0000ms, 0833ms total)
T25C0 001:327 JLINK_WriteReg(MSP, 0x04010000)  returns 0x00 (0000ms, 0833ms total)
T25C0 001:327 JLINK_WriteReg(PSP, 0x04010000)  returns 0x00 (0000ms, 0833ms total)
T25C0 001:327 JLINK_WriteReg(CFBP, 0x00000000)  returns 0x00 (0001ms, 0834ms total)
T25C0 001:328 JLINK_SetBPEx(Addr = 0x04000400, Type = 0xFFFFFFF2)  returns 0x00000005 (0000ms, 0834ms total)
T25C0 001:328 JLINK_Go() -- CPU_WriteMem(4 bytes @ 0xE0002000) -- CPU_ReadMem(4 bytes @ 0xE0001000) (0003ms, 0837ms total)
T25C0 001:331 JLINK_IsHalted()  returns FALSE (0000ms, 0837ms total)
T25C0 001:379 JLINK_IsHalted()  returns TRUE (0002ms, 0839ms total)
T25C0 001:381 JLINK_ReadReg(R15 (PC))  returns 0x04000400 (0000ms, 0837ms total)
T25C0 001:381 JLINK_ClrBPEx(BPHandle = 0x00000005)  returns 0x00 (0000ms, 0837ms total)
T25C0 001:381 JLINK_ReadReg(R0)  returns 0x00000000 (0000ms, 0837ms total)
T25C0 001:382 JLINK_WriteReg(R0, 0x00001000)  returns 0x00 (0001ms, 0838ms total)
T25C0 001:383 JLINK_WriteReg(R1, 0x00000800)  returns 0x00 (0000ms, 0838ms total)
T25C0 001:383 JLINK_WriteReg(R2, 0x000000FF)  returns 0x00 (0000ms, 0838ms total)
T25C0 001:383 JLINK_WriteReg(R3, 0x00000000)  returns 0x00 (0000ms, 0838ms total)
T25C0 001:383 JLINK_WriteReg(R4, 0x00000000)  returns 0x00 (0000ms, 0838ms total)
T25C0 001:383 JLINK_WriteReg(R5, 0x00000000)  returns 0x00 (0000ms, 0838ms total)
T25C0 001:383 JLINK_WriteReg(R6, 0x00000000)  returns 0x00 (0000ms, 0838ms total)
T25C0 001:383 JLINK_WriteReg(R7, 0x00000000)  returns 0x00 (0000ms, 0838ms total)
T25C0 001:383 JLINK_WriteReg(R8, 0x00000000)  returns 0x00 (0000ms, 0838ms total)
T25C0 001:383 JLINK_WriteReg(R9, 0x04000BA8)  returns 0x00 (0000ms, 0838ms total)
T25C0 001:383 JLINK_WriteReg(R10, 0x00000000)  returns 0x00 (0000ms, 0838ms total)
T25C0 001:383 JLINK_WriteReg(R11, 0x00000000)  returns 0x00 (0000ms, 0838ms total)
T25C0 001:383 JLINK_WriteReg(R12, 0x00000000)  returns 0x00 (0000ms, 0838ms total)
T25C0 001:383 JLINK_WriteReg(R13 (SP), 0x04010000)  returns 0x00 (0000ms, 0838ms total)
T25C0 001:383 JLINK_WriteReg(R14, 0x04000401)  returns 0x00 (0000ms, 0838ms total)
T25C0 001:383 JLINK_WriteReg(R15 (PC), 0x04000420)  returns 0x00 (0000ms, 0838ms total)
T25C0 001:383 JLINK_WriteReg(XPSR, 0x01000000)  returns 0x00 (0000ms, 0838ms total)
T25C0 001:383 JLINK_WriteReg(MSP, 0x04010000)  returns 0x00 (0000ms, 0838ms total)
T25C0 001:383 JLINK_WriteReg(PSP, 0x04010000)  returns 0x00 (0000ms, 0838ms total)
T25C0 001:383 JLINK_WriteReg(CFBP, 0x00000000)  returns 0x00 (0000ms, 0838ms total)
T25C0 001:383 JLINK_SetBPEx(Addr = 0x04000400, Type = 0xFFFFFFF2)  returns 0x00000006 (0000ms, 0838ms total)
T25C0 001:383 JLINK_Go() -- CPU_WriteMem(4 bytes @ 0xE0002000) -- CPU_ReadMem(4 bytes @ 0xE0001000) (0003ms, 0841ms total)
T25C0 001:386 JLINK_IsHalted()  returns TRUE (0003ms, 0844ms total)
T25C0 001:389 JLINK_ReadReg(R15 (PC))  returns 0x04000400 (0000ms, 0841ms total)
T25C0 001:389 JLINK_ClrBPEx(BPHandle = 0x00000006)  returns 0x00 (0000ms, 0841ms total)
T25C0 001:389 JLINK_ReadReg(R0)  returns 0x00000001 (0000ms, 0841ms total)
T25C0 001:389 JLINK_WriteReg(R0, 0x00001000)  returns 0x00 (0000ms, 0841ms total)
T25C0 001:389 JLINK_WriteReg(R1, 0x00000800)  returns 0x00 (0000ms, 0841ms total)
T25C0 001:389 JLINK_WriteReg(R2, 0x000000FF)  returns 0x00 (0000ms, 0841ms total)
T25C0 001:389 JLINK_WriteReg(R3, 0x00000000)  returns 0x00 (0000ms, 0841ms total)
T25C0 001:389 JLINK_WriteReg(R4, 0x00000000)  returns 0x00 (0000ms, 0841ms total)
T25C0 001:389 JLINK_WriteReg(R5, 0x00000000)  returns 0x00 (0000ms, 0841ms total)
T25C0 001:389 JLINK_WriteReg(R6, 0x00000000)  returns 0x00 (0000ms, 0841ms total)
T25C0 001:389 JLINK_WriteReg(R7, 0x00000000)  returns 0x00 (0000ms, 0841ms total)
T25C0 001:389 JLINK_WriteReg(R8, 0x00000000)  returns 0x00 (0000ms, 0841ms total)
T25C0 001:389 JLINK_WriteReg(R9, 0x04000BA8)  returns 0x00 (0000ms, 0841ms total)
T25C0 001:389 JLINK_WriteReg(R10, 0x00000000)  returns 0x00 (0001ms, 0842ms total)
T25C0 001:390 JLINK_WriteReg(R11, 0x00000000)  returns 0x00 (0000ms, 0842ms total)
T25C0 001:390 JLINK_WriteReg(R12, 0x00000000)  returns 0x00 (0000ms, 0842ms total)
T25C0 001:390 JLINK_WriteReg(R13 (SP), 0x04010000)  returns 0x00 (0000ms, 0842ms total)
T25C0 001:390 JLINK_WriteReg(R14, 0x04000401)  returns 0x00 (0000ms, 0842ms total)
T25C0 001:390 JLINK_WriteReg(R15 (PC), 0x040004A0)  returns 0x00 (0000ms, 0842ms total)
T25C0 001:390 JLINK_WriteReg(XPSR, 0x01000000)  returns 0x00 (0000ms, 0842ms total)
T25C0 001:390 JLINK_WriteReg(MSP, 0x04010000)  returns 0x00 (0000ms, 0842ms total)
T25C0 001:390 JLINK_WriteReg(PSP, 0x04010000)  returns 0x00 (0000ms, 0842ms total)
T25C0 001:390 JLINK_WriteReg(CFBP, 0x00000000)  returns 0x00 (0000ms, 0842ms total)
T25C0 001:390 JLINK_SetBPEx(Addr = 0x04000400, Type = 0xFFFFFFF2)  returns 0x00000007 (0000ms, 0842ms total)
T25C0 001:390 JLINK_Go() -- CPU_WriteMem(4 bytes @ 0xE0002000) -- CPU_ReadMem(4 bytes @ 0xE0001000) (0003ms, 0845ms total)
T25C0 001:393 JLINK_IsHalted()  returns FALSE (0001ms, 0846ms total)
T25C0 001:402 JLINK_IsHalted()  returns TRUE (0002ms, 0847ms total)
T25C0 001:404 JLINK_ReadReg(R15 (PC))  returns 0x04000400 (0000ms, 0845ms total)
T25C0 001:404 JLINK_ClrBPEx(BPHandle = 0x00000007)  returns 0x00 (0000ms, 0845ms total)
T25C0 001:404 JLINK_ReadReg(R0)  returns 0x00000000 (0000ms, 0845ms total)
T25C0 001:405 JLINK_WriteReg(R0, 0x00001800)  returns 0x00 (0000ms, 0845ms total)
T25C0 001:406 JLINK_WriteReg(R1, 0x00000800)  returns 0x00 (0000ms, 0845ms total)
T25C0 001:406 JLINK_WriteReg(R2, 0x000000FF)  returns 0x00 (0000ms, 0845ms total)
T25C0 001:406 JLINK_WriteReg(R3, 0x00000000)  returns 0x00 (0000ms, 0845ms total)
T25C0 001:406 JLINK_WriteReg(R4, 0x00000000)  returns 0x00 (0000ms, 0845ms total)
T25C0 001:406 JLINK_WriteReg(R5, 0x00000000)  returns 0x00 (0000ms, 0845ms total)
T25C0 001:406 JLINK_WriteReg(R6, 0x00000000)  returns 0x00 (0000ms, 0845ms total)
T25C0 001:406 JLINK_WriteReg(R7, 0x00000000)  returns 0x00 (0000ms, 0845ms total)
T25C0 001:406 JLINK_WriteReg(R8, 0x00000000)  returns 0x00 (0000ms, 0845ms total)
T25C0 001:406 JLINK_WriteReg(R9, 0x04000BA8)  returns 0x00 (0000ms, 0845ms total)
T25C0 001:406 JLINK_WriteReg(R10, 0x00000000)  returns 0x00 (0000ms, 0845ms total)
T25C0 001:406 JLINK_WriteReg(R11, 0x00000000)  returns 0x00 (0000ms, 0845ms total)
T25C0 001:406 JLINK_WriteReg(R12, 0x00000000)  returns 0x00 (0000ms, 0845ms total)
T25C0 001:406 JLINK_WriteReg(R13 (SP), 0x04010000)  returns 0x00 (0000ms, 0845ms total)
T25C0 001:406 JLINK_WriteReg(R14, 0x04000401)  returns 0x00 (0000ms, 0845ms total)
T25C0 001:406 JLINK_WriteReg(R15 (PC), 0x04000420)  returns 0x00 (0000ms, 0845ms total)
T25C0 001:406 JLINK_WriteReg(XPSR, 0x01000000)  returns 0x00 (0000ms, 0845ms total)
T25C0 001:406 JLINK_WriteReg(MSP, 0x04010000)  returns 0x00 (0000ms, 0845ms total)
T25C0 001:406 JLINK_WriteReg(PSP, 0x04010000)  returns 0x00 (0001ms, 0846ms total)
T25C0 001:407 JLINK_WriteReg(CFBP, 0x00000000)  returns 0x00 (0000ms, 0846ms total)
T25C0 001:407 JLINK_SetBPEx(Addr = 0x04000400, Type = 0xFFFFFFF2)  returns 0x00000008 (0000ms, 0846ms total)
T25C0 001:407 JLINK_Go() -- CPU_WriteMem(4 bytes @ 0xE0002000) -- CPU_ReadMem(4 bytes @ 0xE0001000) (0003ms, 0849ms total)
T25C0 001:410 JLINK_IsHalted()  returns TRUE (0002ms, 0851ms total)
T25C0 001:412 JLINK_ReadReg(R15 (PC))  returns 0x04000400 (0000ms, 0849ms total)
T25C0 001:412 JLINK_ClrBPEx(BPHandle = 0x00000008)  returns 0x00 (0000ms, 0849ms total)
T25C0 001:412 JLINK_ReadReg(R0)  returns 0x00000001 (0000ms, 0849ms total)
T25C0 001:412 JLINK_WriteReg(R0, 0x00001800)  returns 0x00 (0000ms, 0849ms total)
T25C0 001:412 JLINK_WriteReg(R1, 0x00000800)  returns 0x00 (0000ms, 0849ms total)
T25C0 001:413 JLINK_WriteReg(R2, 0x000000FF)  returns 0x00 (0000ms, 0849ms total)
T25C0 001:413 JLINK_WriteReg(R3, 0x00000000)  returns 0x00 (0000ms, 0849ms total)
T25C0 001:413 JLINK_WriteReg(R4, 0x00000000)  returns 0x00 (0000ms, 0849ms total)
T25C0 001:413 JLINK_WriteReg(R5, 0x00000000)  returns 0x00 (0000ms, 0849ms total)
T25C0 001:413 JLINK_WriteReg(R6, 0x00000000)  returns 0x00 (0000ms, 0849ms total)
T25C0 001:413 JLINK_WriteReg(R7, 0x00000000)  returns 0x00 (0000ms, 0849ms total)
T25C0 001:413 JLINK_WriteReg(R8, 0x00000000)  returns 0x00 (0000ms, 0849ms total)
T25C0 001:413 JLINK_WriteReg(R9, 0x04000BA8)  returns 0x00 (0000ms, 0849ms total)
T25C0 001:413 JLINK_WriteReg(R10, 0x00000000)  returns 0x00 (0000ms, 0849ms total)
T25C0 001:413 JLINK_WriteReg(R11, 0x00000000)  returns 0x00 (0000ms, 0849ms total)
T25C0 001:413 JLINK_WriteReg(R12, 0x00000000)  returns 0x00 (0000ms, 0849ms total)
T25C0 001:413 JLINK_WriteReg(R13 (SP), 0x04010000)  returns 0x00 (0000ms, 0849ms total)
T25C0 001:413 JLINK_WriteReg(R14, 0x04000401)  returns 0x00 (0000ms, 0849ms total)
T25C0 001:413 JLINK_WriteReg(R15 (PC), 0x040004A0)  returns 0x00 (0000ms, 0849ms total)
T25C0 001:413 JLINK_WriteReg(XPSR, 0x01000000)  returns 0x00 (0000ms, 0849ms total)
T25C0 001:413 JLINK_WriteReg(MSP, 0x04010000)  returns 0x00 (0000ms, 0849ms total)
T25C0 001:413 JLINK_WriteReg(PSP, 0x04010000)  returns 0x00 (0001ms, 0850ms total)
T25C0 001:414 JLINK_WriteReg(CFBP, 0x00000000)  returns 0x00 (0000ms, 0850ms total)
T25C0 001:414 JLINK_SetBPEx(Addr = 0x04000400, Type = 0xFFFFFFF2)  returns 0x00000009 (0000ms, 0850ms total)
T25C0 001:414 JLINK_Go() -- CPU_WriteMem(4 bytes @ 0xE0002000) -- CPU_ReadMem(4 bytes @ 0xE0001000) (0003ms, 0853ms total)
T25C0 001:417 JLINK_IsHalted()  returns FALSE (0000ms, 0853ms total)
T25C0 001:425 JLINK_IsHalted()  returns TRUE (0002ms, 0855ms total)
T25C0 001:427 JLINK_ReadReg(R15 (PC))  returns 0x04000400 (0000ms, 0853ms total)
T25C0 001:427 JLINK_ClrBPEx(BPHandle = 0x00000009)  returns 0x00 (0000ms, 0853ms total)
T25C0 001:427 JLINK_ReadReg(R0)  returns 0x00000000 (0000ms, 0853ms total)
T25C0 001:430 JLINK_WriteReg(R0, 0x00002000)  returns 0x00 (0000ms, 0853ms total)
T25C0 001:430 JLINK_WriteReg(R1, 0x00000800)  returns 0x00 (0000ms, 0853ms total)
T25C0 001:430 JLINK_WriteReg(R2, 0x000000FF)  returns 0x00 (0000ms, 0853ms total)
T25C0 001:430 JLINK_WriteReg(R3, 0x00000000)  returns 0x00 (0001ms, 0854ms total)
T25C0 001:431 JLINK_WriteReg(R4, 0x00000000)  returns 0x00 (0000ms, 0854ms total)
T25C0 001:431 JLINK_WriteReg(R5, 0x00000000)  returns 0x00 (0000ms, 0854ms total)
T25C0 001:431 JLINK_WriteReg(R6, 0x00000000)  returns 0x00 (0000ms, 0854ms total)
T25C0 001:431 JLINK_WriteReg(R7, 0x00000000)  returns 0x00 (0000ms, 0854ms total)
T25C0 001:431 JLINK_WriteReg(R8, 0x00000000)  returns 0x00 (0000ms, 0854ms total)
T25C0 001:431 JLINK_WriteReg(R9, 0x04000BA8)  returns 0x00 (0000ms, 0854ms total)
T25C0 001:431 JLINK_WriteReg(R10, 0x00000000)  returns 0x00 (0000ms, 0854ms total)
T25C0 001:431 JLINK_WriteReg(R11, 0x00000000)  returns 0x00 (0000ms, 0854ms total)
T25C0 001:431 JLINK_WriteReg(R12, 0x00000000)  returns 0x00 (0000ms, 0854ms total)
T25C0 001:431 JLINK_WriteReg(R13 (SP), 0x04010000)  returns 0x00 (0000ms, 0854ms total)
T25C0 001:431 JLINK_WriteReg(R14, 0x04000401)  returns 0x00 (0000ms, 0854ms total)
T25C0 001:431 JLINK_WriteReg(R15 (PC), 0x04000420)  returns 0x00 (0000ms, 0854ms total)
T25C0 001:431 JLINK_WriteReg(XPSR, 0x01000000)  returns 0x00 (0000ms, 0854ms total)
T25C0 001:431 JLINK_WriteReg(MSP, 0x04010000)  returns 0x00 (0000ms, 0854ms total)
T25C0 001:431 JLINK_WriteReg(PSP, 0x04010000)  returns 0x00 (0000ms, 0854ms total)
T25C0 001:431 JLINK_WriteReg(CFBP, 0x00000000)  returns 0x00 (0000ms, 0854ms total)
T25C0 001:431 JLINK_SetBPEx(Addr = 0x04000400, Type = 0xFFFFFFF2)  returns 0x0000000A (0000ms, 0854ms total)
T25C0 001:431 JLINK_Go() -- CPU_WriteMem(4 bytes @ 0xE0002000) -- CPU_ReadMem(4 bytes @ 0xE0001000) (0004ms, 0858ms total)
T25C0 001:435 JLINK_IsHalted()  returns TRUE (0002ms, 0860ms total)
T25C0 001:437 JLINK_ReadReg(R15 (PC))  returns 0x04000400 (0000ms, 0858ms total)
T25C0 001:437 JLINK_ClrBPEx(BPHandle = 0x0000000A)  returns 0x00 (0000ms, 0858ms total)
T25C0 001:437 JLINK_ReadReg(R0)  returns 0x00000001 (0000ms, 0858ms total)
T25C0 001:437 JLINK_WriteReg(R0, 0x00002000)  returns 0x00 (0000ms, 0858ms total)
T25C0 001:437 JLINK_WriteReg(R1, 0x00000800)  returns 0x00 (0000ms, 0858ms total)
T25C0 001:437 JLINK_WriteReg(R2, 0x000000FF)  returns 0x00 (0000ms, 0858ms total)
T25C0 001:437 JLINK_WriteReg(R3, 0x00000000)  returns 0x00 (0000ms, 0858ms total)
T25C0 001:437 JLINK_WriteReg(R4, 0x00000000)  returns 0x00 (0000ms, 0858ms total)
T25C0 001:437 JLINK_WriteReg(R5, 0x00000000)  returns 0x00 (0000ms, 0858ms total)
T25C0 001:437 JLINK_WriteReg(R6, 0x00000000)  returns 0x00 (0000ms, 0858ms total)
T25C0 001:437 JLINK_WriteReg(R7, 0x00000000)  returns 0x00 (0000ms, 0858ms total)
T25C0 001:438 JLINK_WriteReg(R8, 0x00000000)  returns 0x00 (0000ms, 0859ms total)
T25C0 001:438 JLINK_WriteReg(R9, 0x04000BA8)  returns 0x00 (0000ms, 0859ms total)
T25C0 001:438 JLINK_WriteReg(R10, 0x00000000)  returns 0x00 (0000ms, 0859ms total)
T25C0 001:438 JLINK_WriteReg(R11, 0x00000000)  returns 0x00 (0000ms, 0859ms total)
T25C0 001:438 JLINK_WriteReg(R12, 0x00000000)  returns 0x00 (0000ms, 0859ms total)
T25C0 001:438 JLINK_WriteReg(R13 (SP), 0x04010000)  returns 0x00 (0000ms, 0859ms total)
T25C0 001:438 JLINK_WriteReg(R14, 0x04000401)  returns 0x00 (0000ms, 0859ms total)
T25C0 001:438 JLINK_WriteReg(R15 (PC), 0x040004A0)  returns 0x00 (0000ms, 0859ms total)
T25C0 001:438 JLINK_WriteReg(XPSR, 0x01000000)  returns 0x00 (0000ms, 0859ms total)
T25C0 001:438 JLINK_WriteReg(MSP, 0x04010000)  returns 0x00 (0000ms, 0859ms total)
T25C0 001:438 JLINK_WriteReg(PSP, 0x04010000)  returns 0x00 (0000ms, 0859ms total)
T25C0 001:438 JLINK_WriteReg(CFBP, 0x00000000)  returns 0x00 (0000ms, 0859ms total)
T25C0 001:438 JLINK_SetBPEx(Addr = 0x04000400, Type = 0xFFFFFFF2)  returns 0x0000000B (0000ms, 0859ms total)
T25C0 001:438 JLINK_Go() -- CPU_WriteMem(4 bytes @ 0xE0002000) -- CPU_ReadMem(4 bytes @ 0xE0001000) (0003ms, 0862ms total)
T25C0 001:442 JLINK_IsHalted()  returns FALSE (0000ms, 0862ms total)
T25C0 001:470 JLINK_IsHalted()  returns TRUE (0002ms, 0864ms total)
T25C0 001:472 JLINK_ReadReg(R15 (PC))  returns 0x04000400 (0000ms, 0862ms total)
T25C0 001:472 JLINK_ClrBPEx(BPHandle = 0x0000000B)  returns 0x00 (0000ms, 0862ms total)
T25C0 001:472 JLINK_ReadReg(R0)  returns 0x00000000 (0000ms, 0862ms total)
T25C0 001:474 JLINK_WriteReg(R0, 0x00002800)  returns 0x00 (0000ms, 0862ms total)
T25C0 001:474 JLINK_WriteReg(R1, 0x00000800)  returns 0x00 (0000ms, 0862ms total)
T25C0 001:474 JLINK_WriteReg(R2, 0x000000FF)  returns 0x00 (0000ms, 0862ms total)
T25C0 001:474 JLINK_WriteReg(R3, 0x00000000)  returns 0x00 (0000ms, 0862ms total)
T25C0 001:474 JLINK_WriteReg(R4, 0x00000000)  returns 0x00 (0000ms, 0862ms total)
T25C0 001:474 JLINK_WriteReg(R5, 0x00000000)  returns 0x00 (0000ms, 0862ms total)
T25C0 001:474 JLINK_WriteReg(R6, 0x00000000)  returns 0x00 (0000ms, 0862ms total)
T25C0 001:474 JLINK_WriteReg(R7, 0x00000000)  returns 0x00 (0000ms, 0862ms total)
T25C0 001:474 JLINK_WriteReg(R8, 0x00000000)  returns 0x00 (0000ms, 0862ms total)
T25C0 001:474 JLINK_WriteReg(R9, 0x04000BA8)  returns 0x00 (0000ms, 0862ms total)
T25C0 001:474 JLINK_WriteReg(R10, 0x00000000)  returns 0x00 (0000ms, 0862ms total)
T25C0 001:474 JLINK_WriteReg(R11, 0x00000000)  returns 0x00 (0000ms, 0862ms total)
T25C0 001:474 JLINK_WriteReg(R12, 0x00000000)  returns 0x00 (0000ms, 0862ms total)
T25C0 001:474 JLINK_WriteReg(R13 (SP), 0x04010000)  returns 0x00 (0000ms, 0862ms total)
T25C0 001:474 JLINK_WriteReg(R14, 0x04000401)  returns 0x00 (0000ms, 0862ms total)
T25C0 001:474 JLINK_WriteReg(R15 (PC), 0x04000420)  returns 0x00 (0000ms, 0862ms total)
T25C0 001:474 JLINK_WriteReg(XPSR, 0x01000000)  returns 0x00 (0000ms, 0862ms total)
T25C0 001:474 JLINK_WriteReg(MSP, 0x04010000)  returns 0x00 (0000ms, 0862ms total)
T25C0 001:474 JLINK_WriteReg(PSP, 0x04010000)  returns 0x00 (0001ms, 0863ms total)
T25C0 001:475 JLINK_WriteReg(CFBP, 0x00000000)  returns 0x00 (0000ms, 0863ms total)
T25C0 001:475 JLINK_SetBPEx(Addr = 0x04000400, Type = 0xFFFFFFF2)  returns 0x0000000C (0000ms, 0863ms total)
T25C0 001:475 JLINK_Go() -- CPU_WriteMem(4 bytes @ 0xE0002000) -- CPU_ReadMem(4 bytes @ 0xE0001000) (0003ms, 0866ms total)
T25C0 001:478 JLINK_IsHalted()  returns TRUE (0002ms, 0868ms total)
T25C0 001:480 JLINK_ReadReg(R15 (PC))  returns 0x04000400 (0000ms, 0866ms total)
T25C0 001:480 JLINK_ClrBPEx(BPHandle = 0x0000000C)  returns 0x00 (0000ms, 0866ms total)
T25C0 001:480 JLINK_ReadReg(R0)  returns 0x00000001 (0000ms, 0866ms total)
T25C0 001:480 JLINK_WriteReg(R0, 0x00002800)  returns 0x00 (0001ms, 0867ms total)
T25C0 001:481 JLINK_WriteReg(R1, 0x00000800)  returns 0x00 (0000ms, 0867ms total)
T25C0 001:481 JLINK_WriteReg(R2, 0x000000FF)  returns 0x00 (0000ms, 0867ms total)
T25C0 001:481 JLINK_WriteReg(R3, 0x00000000)  returns 0x00 (0000ms, 0867ms total)
T25C0 001:481 JLINK_WriteReg(R4, 0x00000000)  returns 0x00 (0000ms, 0867ms total)
T25C0 001:481 JLINK_WriteReg(R5, 0x00000000)  returns 0x00 (0000ms, 0867ms total)
T25C0 001:481 JLINK_WriteReg(R6, 0x00000000)  returns 0x00 (0000ms, 0867ms total)
T25C0 001:481 JLINK_WriteReg(R7, 0x00000000)  returns 0x00 (0000ms, 0867ms total)
T25C0 001:481 JLINK_WriteReg(R8, 0x00000000)  returns 0x00 (0000ms, 0867ms total)
T25C0 001:481 JLINK_WriteReg(R9, 0x04000BA8)  returns 0x00 (0000ms, 0867ms total)
T25C0 001:481 JLINK_WriteReg(R10, 0x00000000)  returns 0x00 (0000ms, 0867ms total)
T25C0 001:481 JLINK_WriteReg(R11, 0x00000000)  returns 0x00 (0000ms, 0867ms total)
T25C0 001:481 JLINK_WriteReg(R12, 0x00000000)  returns 0x00 (0000ms, 0867ms total)
T25C0 001:482 JLINK_WriteReg(R13 (SP), 0x04010000)  returns 0x00 (0000ms, 0868ms total)
T25C0 001:482 JLINK_WriteReg(R14, 0x04000401)  returns 0x00 (0000ms, 0868ms total)
T25C0 001:482 JLINK_WriteReg(R15 (PC), 0x040004A0)  returns 0x00 (0000ms, 0868ms total)
T25C0 001:482 JLINK_WriteReg(XPSR, 0x01000000)  returns 0x00 (0000ms, 0868ms total)
T25C0 001:482 JLINK_WriteReg(MSP, 0x04010000)  returns 0x00 (0000ms, 0868ms total)
T25C0 001:482 JLINK_WriteReg(PSP, 0x04010000)  returns 0x00 (0000ms, 0868ms total)
T25C0 001:482 JLINK_WriteReg(CFBP, 0x00000000)  returns 0x00 (0000ms, 0868ms total)
T25C0 001:482 JLINK_SetBPEx(Addr = 0x04000400, Type = 0xFFFFFFF2)  returns 0x0000000D (0000ms, 0868ms total)
T25C0 001:482 JLINK_Go() -- CPU_WriteMem(4 bytes @ 0xE0002000) -- CPU_ReadMem(4 bytes @ 0xE0001000) (0003ms, 0871ms total)
T25C0 001:485 JLINK_IsHalted()  returns FALSE (0001ms, 0872ms total)
T25C0 001:505 JLINK_IsHalted()  returns TRUE (0002ms, 0873ms total)
T25C0 001:507 JLINK_ReadReg(R15 (PC))  returns 0x04000400 (0000ms, 0871ms total)
T25C0 001:507 JLINK_ClrBPEx(BPHandle = 0x0000000D)  returns 0x00 (0000ms, 0871ms total)
T25C0 001:507 JLINK_ReadReg(R0)  returns 0x00000000 (0000ms, 0871ms total)
T25C0 001:508 JLINK_WriteReg(R0, 0x00003000)  returns 0x00 (0000ms, 0871ms total)
T25C0 001:508 JLINK_WriteReg(R1, 0x00000800)  returns 0x00 (0000ms, 0871ms total)
T25C0 001:509 JLINK_WriteReg(R2, 0x000000FF)  returns 0x00 (0000ms, 0871ms total)
T25C0 001:509 JLINK_WriteReg(R3, 0x00000000)  returns 0x00 (0000ms, 0871ms total)
T25C0 001:509 JLINK_WriteReg(R4, 0x00000000)  returns 0x00 (0000ms, 0871ms total)
T25C0 001:509 JLINK_WriteReg(R5, 0x00000000)  returns 0x00 (0000ms, 0871ms total)
T25C0 001:509 JLINK_WriteReg(R6, 0x00000000)  returns 0x00 (0000ms, 0871ms total)
T25C0 001:509 JLINK_WriteReg(R7, 0x00000000)  returns 0x00 (0000ms, 0871ms total)
T25C0 001:509 JLINK_WriteReg(R8, 0x00000000)  returns 0x00 (0000ms, 0871ms total)
T25C0 001:509 JLINK_WriteReg(R9, 0x04000BA8)  returns 0x00 (0000ms, 0871ms total)
T25C0 001:509 JLINK_WriteReg(R10, 0x00000000)  returns 0x00 (0000ms, 0871ms total)
T25C0 001:509 JLINK_WriteReg(R11, 0x00000000)  returns 0x00 (0000ms, 0871ms total)
T25C0 001:509 JLINK_WriteReg(R12, 0x00000000)  returns 0x00 (0000ms, 0871ms total)
T25C0 001:509 JLINK_WriteReg(R13 (SP), 0x04010000)  returns 0x00 (0000ms, 0871ms total)
T25C0 001:509 JLINK_WriteReg(R14, 0x04000401)  returns 0x00 (0001ms, 0872ms total)
T25C0 001:510 JLINK_WriteReg(R15 (PC), 0x04000420)  returns 0x00 (0000ms, 0872ms total)
T25C0 001:510 JLINK_WriteReg(XPSR, 0x01000000)  returns 0x00 (0000ms, 0872ms total)
T25C0 001:510 JLINK_WriteReg(MSP, 0x04010000)  returns 0x00 (0000ms, 0872ms total)
T25C0 001:510 JLINK_WriteReg(PSP, 0x04010000)  returns 0x00 (0000ms, 0872ms total)
T25C0 001:510 JLINK_WriteReg(CFBP, 0x00000000)  returns 0x00 (0000ms, 0872ms total)
T25C0 001:510 JLINK_SetBPEx(Addr = 0x04000400, Type = 0xFFFFFFF2)  returns 0x0000000E (0000ms, 0872ms total)
T25C0 001:510 JLINK_Go() -- CPU_WriteMem(4 bytes @ 0xE0002000) -- CPU_ReadMem(4 bytes @ 0xE0001000) (0003ms, 0875ms total)
T25C0 001:513 JLINK_IsHalted()  returns TRUE (0002ms, 0877ms total)
T25C0 001:515 JLINK_ReadReg(R15 (PC))  returns 0x04000400 (0000ms, 0875ms total)
T25C0 001:515 JLINK_ClrBPEx(BPHandle = 0x0000000E)  returns 0x00 (0000ms, 0875ms total)
T25C0 001:516 JLINK_ReadReg(R0)  returns 0x00000001 (0000ms, 0876ms total)
T25C0 001:516 JLINK_WriteReg(R0, 0x00003000)  returns 0x00 (0000ms, 0876ms total)
T25C0 001:516 JLINK_WriteReg(R1, 0x00000800)  returns 0x00 (0000ms, 0876ms total)
T25C0 001:516 JLINK_WriteReg(R2, 0x000000FF)  returns 0x00 (0000ms, 0876ms total)
T25C0 001:516 JLINK_WriteReg(R3, 0x00000000)  returns 0x00 (0000ms, 0876ms total)
T25C0 001:516 JLINK_WriteReg(R4, 0x00000000)  returns 0x00 (0000ms, 0876ms total)
T25C0 001:516 JLINK_WriteReg(R5, 0x00000000)  returns 0x00 (0000ms, 0876ms total)
T25C0 001:516 JLINK_WriteReg(R6, 0x00000000)  returns 0x00 (0000ms, 0876ms total)
T25C0 001:516 JLINK_WriteReg(R7, 0x00000000)  returns 0x00 (0000ms, 0876ms total)
T25C0 001:516 JLINK_WriteReg(R8, 0x00000000)  returns 0x00 (0000ms, 0876ms total)
T25C0 001:516 JLINK_WriteReg(R9, 0x04000BA8)  returns 0x00 (0000ms, 0876ms total)
T25C0 001:516 JLINK_WriteReg(R10, 0x00000000)  returns 0x00 (0000ms, 0876ms total)
T25C0 001:516 JLINK_WriteReg(R11, 0x00000000)  returns 0x00 (0000ms, 0876ms total)
T25C0 001:516 JLINK_WriteReg(R12, 0x00000000)  returns 0x00 (0000ms, 0876ms total)
T25C0 001:516 JLINK_WriteReg(R13 (SP), 0x04010000)  returns 0x00 (0000ms, 0876ms total)
T25C0 001:516 JLINK_WriteReg(R14, 0x04000401)  returns 0x00 (0000ms, 0876ms total)
T25C0 001:516 JLINK_WriteReg(R15 (PC), 0x040004A0)  returns 0x00 (0000ms, 0876ms total)
T25C0 001:516 JLINK_WriteReg(XPSR, 0x01000000)  returns 0x00 (0000ms, 0876ms total)
T25C0 001:516 JLINK_WriteReg(MSP, 0x04010000)  returns 0x00 (0000ms, 0876ms total)
T25C0 001:516 JLINK_WriteReg(PSP, 0x04010000)  returns 0x00 (0000ms, 0876ms total)
T25C0 001:516 JLINK_WriteReg(CFBP, 0x00000000)  returns 0x00 (0000ms, 0876ms total)
T25C0 001:516 JLINK_SetBPEx(Addr = 0x04000400, Type = 0xFFFFFFF2)  returns 0x0000000F (0001ms, 0877ms total)
T25C0 001:517 JLINK_Go() -- CPU_WriteMem(4 bytes @ 0xE0002000) -- CPU_ReadMem(4 bytes @ 0xE0001000) (0003ms, 0880ms total)
T25C0 001:520 JLINK_IsHalted()  returns FALSE (0000ms, 0880ms total)
T25C0 001:529 JLINK_IsHalted()  returns TRUE (0002ms, 0882ms total)
T25C0 001:531 JLINK_ReadReg(R15 (PC))  returns 0x04000400 (0000ms, 0880ms total)
T25C0 001:531 JLINK_ClrBPEx(BPHandle = 0x0000000F)  returns 0x00 (0000ms, 0880ms total)
T25C0 001:531 JLINK_ReadReg(R0)  returns 0x00000000 (0000ms, 0880ms total)
T25C0 001:532 JLINK_WriteReg(R0, 0x00003800)  returns 0x00 (0000ms, 0880ms total)
T25C0 001:532 JLINK_WriteReg(R1, 0x00000800)  returns 0x00 (0000ms, 0880ms total)
T25C0 001:532 JLINK_WriteReg(R2, 0x000000FF)  returns 0x00 (0000ms, 0880ms total)
T25C0 001:532 JLINK_WriteReg(R3, 0x00000000)  returns 0x00 (0000ms, 0880ms total)
T25C0 001:532 JLINK_WriteReg(R4, 0x00000000)  returns 0x00 (0001ms, 0881ms total)
T25C0 001:533 JLINK_WriteReg(R5, 0x00000000)  returns 0x00 (0000ms, 0881ms total)
T25C0 001:533 JLINK_WriteReg(R6, 0x00000000)  returns 0x00 (0000ms, 0881ms total)
T25C0 001:533 JLINK_WriteReg(R7, 0x00000000)  returns 0x00 (0000ms, 0881ms total)
T25C0 001:533 JLINK_WriteReg(R8, 0x00000000)  returns 0x00 (0000ms, 0881ms total)
T25C0 001:533 JLINK_WriteReg(R9, 0x04000BA8)  returns 0x00 (0000ms, 0881ms total)
T25C0 001:533 JLINK_WriteReg(R10, 0x00000000)  returns 0x00 (0000ms, 0881ms total)
T25C0 001:533 JLINK_WriteReg(R11, 0x00000000)  returns 0x00 (0000ms, 0881ms total)
T25C0 001:533 JLINK_WriteReg(R12, 0x00000000)  returns 0x00 (0000ms, 0881ms total)
T25C0 001:533 JLINK_WriteReg(R13 (SP), 0x04010000)  returns 0x00 (0000ms, 0881ms total)
T25C0 001:533 JLINK_WriteReg(R14, 0x04000401)  returns 0x00 (0000ms, 0881ms total)
T25C0 001:533 JLINK_WriteReg(R15 (PC), 0x04000420)  returns 0x00 (0000ms, 0881ms total)
T25C0 001:533 JLINK_WriteReg(XPSR, 0x01000000)  returns 0x00 (0000ms, 0881ms total)
T25C0 001:533 JLINK_WriteReg(MSP, 0x04010000)  returns 0x00 (0000ms, 0881ms total)
T25C0 001:533 JLINK_WriteReg(PSP, 0x04010000)  returns 0x00 (0000ms, 0881ms total)
T25C0 001:533 JLINK_WriteReg(CFBP, 0x00000000)  returns 0x00 (0000ms, 0881ms total)
T25C0 001:533 JLINK_SetBPEx(Addr = 0x04000400, Type = 0xFFFFFFF2)  returns 0x00000010 (0000ms, 0881ms total)
T25C0 001:533 JLINK_Go() -- CPU_WriteMem(4 bytes @ 0xE0002000) -- CPU_ReadMem(4 bytes @ 0xE0001000) (0003ms, 0884ms total)
T25C0 001:536 JLINK_IsHalted()  returns TRUE (0003ms, 0887ms total)
T25C0 001:539 JLINK_ReadReg(R15 (PC))  returns 0x04000400 (0000ms, 0884ms total)
T25C0 001:539 JLINK_ClrBPEx(BPHandle = 0x00000010)  returns 0x00 (0000ms, 0884ms total)
T25C0 001:539 JLINK_ReadReg(R0)  returns 0x00000001 (0000ms, 0884ms total)
T25C0 001:539 JLINK_WriteReg(R0, 0x00003800)  returns 0x00 (0000ms, 0884ms total)
T25C0 001:539 JLINK_WriteReg(R1, 0x00000800)  returns 0x00 (0000ms, 0884ms total)
T25C0 001:539 JLINK_WriteReg(R2, 0x000000FF)  returns 0x00 (0000ms, 0884ms total)
T25C0 001:539 JLINK_WriteReg(R3, 0x00000000)  returns 0x00 (0000ms, 0884ms total)
T25C0 001:539 JLINK_WriteReg(R4, 0x00000000)  returns 0x00 (0000ms, 0884ms total)
T25C0 001:539 JLINK_WriteReg(R5, 0x00000000)  returns 0x00 (0000ms, 0884ms total)
T25C0 001:539 JLINK_WriteReg(R6, 0x00000000)  returns 0x00 (0000ms, 0884ms total)
T25C0 001:539 JLINK_WriteReg(R7, 0x00000000)  returns 0x00 (0000ms, 0884ms total)
T25C0 001:539 JLINK_WriteReg(R8, 0x00000000)  returns 0x00 (0001ms, 0885ms total)
T25C0 001:540 JLINK_WriteReg(R9, 0x04000BA8)  returns 0x00 (0000ms, 0885ms total)
T25C0 001:540 JLINK_WriteReg(R10, 0x00000000)  returns 0x00 (0000ms, 0885ms total)
T25C0 001:540 JLINK_WriteReg(R11, 0x00000000)  returns 0x00 (0000ms, 0885ms total)
T25C0 001:540 JLINK_WriteReg(R12, 0x00000000)  returns 0x00 (0000ms, 0885ms total)
T25C0 001:540 JLINK_WriteReg(R13 (SP), 0x04010000)  returns 0x00 (0000ms, 0885ms total)
T25C0 001:540 JLINK_WriteReg(R14, 0x04000401)  returns 0x00 (0000ms, 0885ms total)
T25C0 001:540 JLINK_WriteReg(R15 (PC), 0x040004A0)  returns 0x00 (0000ms, 0885ms total)
T25C0 001:540 JLINK_WriteReg(XPSR, 0x01000000)  returns 0x00 (0000ms, 0885ms total)
T25C0 001:540 JLINK_WriteReg(MSP, 0x04010000)  returns 0x00 (0000ms, 0885ms total)
T25C0 001:540 JLINK_WriteReg(PSP, 0x04010000)  returns 0x00 (0000ms, 0885ms total)
T25C0 001:540 JLINK_WriteReg(CFBP, 0x00000000)  returns 0x00 (0000ms, 0885ms total)
T25C0 001:540 JLINK_SetBPEx(Addr = 0x04000400, Type = 0xFFFFFFF2)  returns 0x00000011 (0000ms, 0885ms total)
T25C0 001:540 JLINK_Go() -- CPU_WriteMem(4 bytes @ 0xE0002000) -- CPU_ReadMem(4 bytes @ 0xE0001000) (0003ms, 0888ms total)
T25C0 001:543 JLINK_IsHalted()  returns FALSE (0001ms, 0889ms total)
T25C0 001:549 JLINK_IsHalted()  returns TRUE (0002ms, 0890ms total)
T25C0 001:551 JLINK_ReadReg(R15 (PC))  returns 0x04000400 (0000ms, 0888ms total)
T25C0 001:551 JLINK_ClrBPEx(BPHandle = 0x00000011)  returns 0x00 (0000ms, 0888ms total)
T25C0 001:551 JLINK_ReadReg(R0)  returns 0x00000000 (0000ms, 0888ms total)
T25C0 001:554 JLINK_WriteReg(R0, 0x00004000)  returns 0x00 (0000ms, 0888ms total)
T25C0 001:554 JLINK_WriteReg(R1, 0x00000800)  returns 0x00 (0000ms, 0888ms total)
T25C0 001:554 JLINK_WriteReg(R2, 0x000000FF)  returns 0x00 (0000ms, 0888ms total)
T25C0 001:554 JLINK_WriteReg(R3, 0x00000000)  returns 0x00 (0000ms, 0888ms total)
T25C0 001:554 JLINK_WriteReg(R4, 0x00000000)  returns 0x00 (0001ms, 0889ms total)
T25C0 001:555 JLINK_WriteReg(R5, 0x00000000)  returns 0x00 (0000ms, 0889ms total)
T25C0 001:555 JLINK_WriteReg(R6, 0x00000000)  returns 0x00 (0000ms, 0889ms total)
T25C0 001:555 JLINK_WriteReg(R7, 0x00000000)  returns 0x00 (0000ms, 0889ms total)
T25C0 001:555 JLINK_WriteReg(R8, 0x00000000)  returns 0x00 (0000ms, 0889ms total)
T25C0 001:555 JLINK_WriteReg(R9, 0x04000BA8)  returns 0x00 (0000ms, 0889ms total)
T25C0 001:555 JLINK_WriteReg(R10, 0x00000000)  returns 0x00 (0000ms, 0889ms total)
T25C0 001:555 JLINK_WriteReg(R11, 0x00000000)  returns 0x00 (0000ms, 0889ms total)
T25C0 001:555 JLINK_WriteReg(R12, 0x00000000)  returns 0x00 (0000ms, 0889ms total)
T25C0 001:555 JLINK_WriteReg(R13 (SP), 0x04010000)  returns 0x00 (0000ms, 0889ms total)
T25C0 001:555 JLINK_WriteReg(R14, 0x04000401)  returns 0x00 (0000ms, 0889ms total)
T25C0 001:555 JLINK_WriteReg(R15 (PC), 0x04000420)  returns 0x00 (0000ms, 0889ms total)
T25C0 001:555 JLINK_WriteReg(XPSR, 0x01000000)  returns 0x00 (0000ms, 0889ms total)
T25C0 001:555 JLINK_WriteReg(MSP, 0x04010000)  returns 0x00 (0000ms, 0889ms total)
T25C0 001:555 JLINK_WriteReg(PSP, 0x04010000)  returns 0x00 (0000ms, 0889ms total)
T25C0 001:555 JLINK_WriteReg(CFBP, 0x00000000)  returns 0x00 (0001ms, 0890ms total)
T25C0 001:556 JLINK_SetBPEx(Addr = 0x04000400, Type = 0xFFFFFFF2)  returns 0x00000012 (0000ms, 0890ms total)
T25C0 001:556 JLINK_Go() -- CPU_WriteMem(4 bytes @ 0xE0002000) -- CPU_ReadMem(4 bytes @ 0xE0001000) (0003ms, 0893ms total)
T25C0 001:559 JLINK_IsHalted()  returns TRUE (0002ms, 0895ms total)
T25C0 001:561 JLINK_ReadReg(R15 (PC))  returns 0x04000400 (0000ms, 0893ms total)
T25C0 001:561 JLINK_ClrBPEx(BPHandle = 0x00000012)  returns 0x00 (0001ms, 0894ms total)
T25C0 001:562 JLINK_ReadReg(R0)  returns 0x00000001 (0000ms, 0894ms total)
T25C0 001:562 JLINK_WriteReg(R0, 0x00004000)  returns 0x00 (0000ms, 0894ms total)
T25C0 001:562 JLINK_WriteReg(R1, 0x00000800)  returns 0x00 (0000ms, 0894ms total)
T25C0 001:562 JLINK_WriteReg(R2, 0x000000FF)  returns 0x00 (0000ms, 0894ms total)
T25C0 001:562 JLINK_WriteReg(R3, 0x00000000)  returns 0x00 (0000ms, 0894ms total)
T25C0 001:562 JLINK_WriteReg(R4, 0x00000000)  returns 0x00 (0000ms, 0894ms total)
T25C0 001:562 JLINK_WriteReg(R5, 0x00000000)  returns 0x00 (0000ms, 0894ms total)
T25C0 001:562 JLINK_WriteReg(R6, 0x00000000)  returns 0x00 (0000ms, 0894ms total)
T25C0 001:562 JLINK_WriteReg(R7, 0x00000000)  returns 0x00 (0000ms, 0894ms total)
T25C0 001:562 JLINK_WriteReg(R8, 0x00000000)  returns 0x00 (0000ms, 0894ms total)
T25C0 001:562 JLINK_WriteReg(R9, 0x04000BA8)  returns 0x00 (0000ms, 0894ms total)
T25C0 001:562 JLINK_WriteReg(R10, 0x00000000)  returns 0x00 (0000ms, 0894ms total)
T25C0 001:562 JLINK_WriteReg(R11, 0x00000000)  returns 0x00 (0000ms, 0894ms total)
T25C0 001:562 JLINK_WriteReg(R12, 0x00000000)  returns 0x00 (0000ms, 0894ms total)
T25C0 001:562 JLINK_WriteReg(R13 (SP), 0x04010000)  returns 0x00 (0000ms, 0894ms total)
T25C0 001:562 JLINK_WriteReg(R14, 0x04000401)  returns 0x00 (0000ms, 0894ms total)
T25C0 001:562 JLINK_WriteReg(R15 (PC), 0x040004A0)  returns 0x00 (0000ms, 0894ms total)
T25C0 001:562 JLINK_WriteReg(XPSR, 0x01000000)  returns 0x00 (0000ms, 0894ms total)
